
T2A6C 000:036 SEGGER J-Link V6.00e Log File (0001ms, 0016ms total)
T2A6C 000:036 DLL Compiled: Aug  4 2016 09:37:38 (0001ms, 0016ms total)
T2A6C 000:036 Logging started @ 2016-10-19 21:43 (0001ms, 0016ms total)
T2A6C 000:037 JLINK_SetWarnOutHandler(...) (0000ms, 0016ms total)
T2A6C 000:037 JLINK_OpenEx(...)
Firmware: J-Link ARM V8 compiled Jan 31 2018 18:34:52
Hardware: V8.00
S/N: 20080643
Feature(s): RDI,FlashDL,FlashBP,JFlash,GDBFull  returns O.K. (0009ms, 0025ms total)
T2A6C 000:046 JLINK_SetErrorOutHandler(...) (0000ms, 0025ms total)
T2A6C 000:046 JLINK_ExecCommand("ProjectFile = "H:\rtos\自己动手从0到1写嵌入式操作系统\第13部分 内核扩展裁剪与移植\C13.03 移植到其它Cortex-M\code_project\stm32f103_project\JLinkSettings.ini"", ...).   returns 0x00 (0107ms, 0132ms total)
T2A6C 000:153 JLINK_ExecCommand("Device = STM32F100RC", ...). Device "STM32F100RC" selected.  returns 0x00 (0001ms, 0133ms total)
T2A6C 000:154 JLINK_ExecCommand("DisableConnectionTimeout", ...).   returns 0x01 (0000ms, 0133ms total)
T2A6C 000:154 JLINK_GetHardwareVersion()  returns 0x13880 (0000ms, 0133ms total)
T2A6C 000:154 JLINK_GetDLLVersion()  returns 60005 (0000ms, 0133ms total)
T2A6C 000:154 JLINK_GetFirmwareString(...) (0000ms, 0133ms total)
T2A6C 000:154 JLINK_GetDLLVersion()  returns 60005 (0000ms, 0133ms total)
T2A6C 000:154 JLINK_GetCompileDateTime() (0000ms, 0133ms total)
T2A6C 000:154 JLINK_GetFirmwareString(...) (0000ms, 0133ms total)
T2A6C 000:154 JLINK_GetHardwareVersion()  returns 0x13880 (0000ms, 0133ms total)
T2A6C 000:154 JLINK_TIF_Select(JLINKARM_TIF_SWD)  returns 0x00 (0002ms, 0135ms total)
T2A6C 000:156 JLINK_SetSpeed(5000) (0000ms, 0135ms total)
T2A6C 000:156 JLINK_GetId() >0x108 TIF>Found SWD-DP with ID 0x1BA01477 >0x0D TIF> >0x28 TIF> >0x0D TIF> >0x28 TIF> >0x0D TIF> >0x28 TIF> >0x0D TIF> >0x28 TIF> >0x0D TIF> >0x21 TIF> >0x0D TIF> >0x28 TIF> >0x0D TIF> >0x28 TIF> >0x0D TIF> >0x28 TIF> >0x0D TIF> >0x21 TIF> >0x0D TIF> >0x21 TIF> >0x0D TIF> >0x28 TIF> >0x0D TIF> >0x21 TIF> >0x0D TIF> >0x21 TIF> >0x0D TIF> >0x28 TIF> >0x0D TIF> >0x21 TIF> >0x0D TIF> >0x21 TIF> >0x0D TIF> >0x28 TIF> >0x0D TIF> >0x21 TIF> >0x0D TIF> >0x21 TIF> >0x0D TIF>
 >0x28 TIF> >0x0D TIF> >0x21 TIF> >0x0D TIF> >0x21 TIF> >0x0D TIF> >0x28 TIF> >0x0D TIF> >0x21 TIF> >0x0D TIF> >0x21 TIF> >0x0D TIF> >0x28 TIF> >0x0D TIF> >0x21 TIF> >0x0D TIF> >0x21 TIF> >0x108 TIF>Found SWD-DP with ID 0x1BA01477 >0x0D TIF> >0x28 TIF> >0x0D TIF> >0x28 TIF> >0x0D TIF> >0x28 TIF> >0x0D TIF> >0x28 TIF> >0x0D TIF> >0x21 TIF> >0x0D TIF> >0x28 TIF> >0x0D TIF> >0x28 TIF> >0x0D TIF> >0x21 TIF> >0x0D TIF> >0x21 TIF> >0x0D TIF> >0x21 TIF>AP-IDR: 0x14770011, Type: AHB-AP >0x0D TIF> >0x28 TIF>
 >0x0D TIF> >0x28 TIF> >0x0D TIF> >0x28 TIF> >0x0D TIF> >0x21 TIF> >0x0D TIF> >0x21 TIF> >0x0D TIF> >0x28 TIF> >0x0D TIF> >0x21 TIF> >0x0D TIF> >0x21 TIF>Found Cortex-M3 r1p1, Little endian. >0x0D TIF> >0x28 TIF> -- CPU_ReadMem(4 bytes @ 0xE000EDF0) -- CPU_ReadMem(4 bytes @ 0xE0002000)FPUnit: 6 code (BP) slots and 2 literal slots -- CPU_ReadMem(4 bytes @ 0xE000EDFC) -- CPU_ReadMem(4 bytes @ 0xE0001000) -- CPU_WriteMem(4 bytes @ 0xE0001000) -- CPU_ReadMem(4 bytes @ 0xE000ED88)
 -- CPU_WriteMem(4 bytes @ 0xE000ED88) -- CPU_ReadMem(4 bytes @ 0xE000ED88) -- CPU_WriteMem(4 bytes @ 0xE000ED88)CoreSight components:ROMTbl 0 @ E00FF000 -- CPU_ReadMem(16 bytes @ 0xE00FF000) -- CPU_ReadMem(16 bytes @ 0xE000EFF0) -- CPU_ReadMem(16 bytes @ 0xE000EFE0)ROMTbl 0 [0]: FFF0F000, CID: B105E00D, PID: 001BB000 SCS -- CPU_ReadMem(16 bytes @ 0xE0001FF0) -- CPU_ReadMem(16 bytes @ 0xE0001FE0)ROMTbl 0 [1]: FFF02000, CID: B105E00D, PID: 001BB002 DWT -- CPU_ReadMem(16 bytes @ 0xE0002FF0)
 -- CPU_ReadMem(16 bytes @ 0xE0002FE0)ROMTbl 0 [2]: FFF03000, CID: B105E00D, PID: 000BB003 FPB -- CPU_ReadMem(16 bytes @ 0xE0000FF0) -- CPU_ReadMem(16 bytes @ 0xE0000FE0)ROMTbl 0 [3]: FFF01000, CID: B105E00D, PID: 001BB001 ITM -- CPU_ReadMem(16 bytes @ 0xE00FF010) -- CPU_ReadMem(16 bytes @ 0xE0040FF0) -- CPU_ReadMem(16 bytes @ 0xE0040FE0)ROMTbl 0 [4]: FFF41000, CID: B105900D, PID: 001BB923 TPIU-Lite -- CPU_ReadMem(16 bytes @ 0xE0041FF0) -- CPU_ReadMem(16 bytes @ 0xE0041FE0)
ROMTbl 0 [5]: FFF42000, CID: B105900D, PID: 101BB924 ETM-M3 >0x0D TIF> >0x21 TIF>  returns 0x1BA01477 (0057ms, 0192ms total)
T2A6C 000:213 JLINK_GetDLLVersion()  returns 60005 (0000ms, 0192ms total)
T2A6C 000:213 JLINK_CORE_GetFound()  returns 0x30000FF (0000ms, 0192ms total)
T2A6C 000:213 JLINK_GetDebugInfo(0x100) -- Value=0xE00FF000  returns 0x00 (0000ms, 0192ms total)
T2A6C 000:213 JLINK_GetDebugInfo(0x100) -- Value=0xE00FF000  returns 0x00 (0000ms, 0192ms total)
T2A6C 000:213 JLINK_GetDebugInfo(0x101) -- Value=0xE0041000  returns 0x00 (0000ms, 0192ms total)
T2A6C 000:213 JLINK_GetDebugInfo(0x102) -- Value=0x00000000  returns 0x00 (0000ms, 0192ms total)
T2A6C 000:213 JLINK_GetDebugInfo(0x103) -- Value=0xE0040000  returns 0x00 (0000ms, 0192ms total)
T2A6C 000:213 JLINK_GetDebugInfo(0x104) -- Value=0xE0000000  returns 0x00 (0000ms, 0192ms total)
T2A6C 000:213 JLINK_GetDebugInfo(0x105) -- Value=0xE0001000  returns 0x00 (0000ms, 0192ms total)
T2A6C 000:213 JLINK_GetDebugInfo(0x106) -- Value=0xE0002000  returns 0x00 (0000ms, 0192ms total)
T2A6C 000:213 JLINK_GetDebugInfo(0x107) -- Value=0xE000E000  returns 0x00 (0000ms, 0192ms total)
T2A6C 000:213 JLINK_GetDebugInfo(0x10C) -- Value=0xE000EDF0  returns 0x00 (0000ms, 0192ms total)
T2A6C 000:213 JLINK_ReadMemU32(0xE000ED00, 0x0001 Items, ...) -- CPU is running -- CPU_ReadMem(4 bytes @ 0xE000ED00) - Data: 31 C2 1F 41  returns 0x01 (0001ms, 0193ms total)
T2A6C 000:214 JLINK_SetResetType(JLINKARM_RESET_TYPE_NORMAL)  returns JLINKARM_RESET_TYPE_NORMAL (0000ms, 0193ms total)
T2A6C 000:214 JLINK_Reset() -- CPU_WriteMem(4 bytes @ 0xE0002000) -- CPU_ReadMem(4 bytes @ 0xE000EDFC) -- CPU_WriteMem(4 bytes @ 0xE000EDFC) -- CPU_ReadMem(4 bytes @ 0xE0001000) (0014ms, 0207ms total)
T2A6C 000:228 JLINK_ReadReg(R15 (PC))  returns 0x08000200 (0000ms, 0207ms total)
T2A6C 000:228 JLINK_ReadReg(XPSR)  returns 0x01000000 (0000ms, 0207ms total)
T2A6C 000:228 JLINK_Halt()  returns 0x00 (0000ms, 0207ms total)
T2A6C 000:228 JLINK_IsHalted()  returns TRUE (0000ms, 0207ms total)
T2A6C 000:228 JLINK_ReadMemU32(0xE000EDF0, 0x0001 Items, ...) -- CPU_ReadMem(4 bytes @ 0xE000EDF0) - Data: 03 00 03 00  returns 0x01 (0001ms, 0208ms total)
T2A6C 000:229 JLINK_WriteU32(0xE000EDF0, 0xA05F0003) -- CPU_WriteMem(4 bytes @ 0xE000EDF0)  returns 0x00 (0000ms, 0208ms total)
T2A6C 000:229 JLINK_WriteU32(0xE000EDFC, 0x01000000) -- CPU_WriteMem(4 bytes @ 0xE000EDFC)  returns 0x00 (0001ms, 0209ms total)
T2A6C 000:230 JLINK_GetHWStatus(...)  returns 0x00 (0000ms, 0209ms total)
T2A6C 000:230 JLINK_GetNumBPUnits(Type = 0xFFFFFF00)  returns 0x06 (0000ms, 0209ms total)
T2A6C 000:230 JLINK_GetNumBPUnits(Type = 0xF0)  returns 0x2000 (0000ms, 0209ms total)
T2A6C 000:230 JLINK_GetNumWPUnits()  returns 0x04 (0000ms, 0209ms total)
T2A6C 000:230 JLINK_GetSpeed()  returns 0xFA0 (0000ms, 0209ms total)
T2A6C 000:230 JLINK_ReadMemU32(0xE000E004, 0x0001 Items, ...) -- CPU_ReadMem(4 bytes @ 0xE000E004) - Data: 01 00 00 00  returns 0x01 (0001ms, 0210ms total)
T2A6C 000:231 JLINK_ReadMemU32(0xE000E004, 0x0001 Items, ...) -- CPU_ReadMem(4 bytes @ 0xE000E004) - Data: 01 00 00 00  returns 0x01 (0001ms, 0211ms total)
T2A6C 000:232 JLINK_WriteMem(0xE0001000, 0x001C Bytes, ...) - Data: 01 00 00 00 00 00 00 00 00 00 00 00 00 00 00 00 ... -- CPU_WriteMem(28 bytes @ 0xE0001000)  returns 0x1C (0001ms, 0212ms total)
T2A6C 000:233 JLINK_ReadMem (0xE0001000, 0x001C Bytes, ...) -- CPU_ReadMem(28 bytes @ 0xE0001000) - Data: 01 00 00 40 00 00 00 00 00 00 00 00 00 00 00 00 ...  returns 0x00 (0001ms, 0213ms total)
T2A6C 000:234 JLINK_ReadReg(R15 (PC))  returns 0x08000200 (0000ms, 0213ms total)
T2A6C 000:234 JLINK_ReadReg(XPSR)  returns 0x01000000 (0000ms, 0213ms total)
T2A6C 000:234 JLINK_WriteU32(0xE0041FB0, 0xC5ACCE55) -- CPU_WriteMem(4 bytes @ 0xE0041FB0)  returns 0x00 (0001ms, 0214ms total)
T2A6C 000:235 JLINK_ReadMemU32(0xE0041000, 0x0001 Items, ...) -- CPU_ReadMem(4 bytes @ 0xE0041000) - Data: 01 00 00 00  returns 0x01 (0000ms, 0214ms total)
T2A6C 000:235 JLINK_WriteU32(0xE0041000, 0x00000000) -- CPU_WriteMem(4 bytes @ 0xE0041000)  returns 0x00 (0001ms, 0215ms total)
T2A6C 000:239 JLINK_SWO_Control(JLINKARM_SWO_CMD_GET_SPEED_INFO, ...)  returns 0x00 (0000ms, 0215ms total)
T2A6C 000:239 JLINK_SWO_Control(JLINKARM_SWO_CMD_STOP, ...)  returns 0x00 (0000ms, 0215ms total)
T2A6C 000:239 JLINK_SWO_Control(JLINKARM_SWO_CMD_START, ...) -- UART -- 2000000bps -- CPU_ReadMem(4 bytes @ 0xE0042004)  returns 0x00 (0003ms, 0218ms total)
T2A6C 000:242 JLINK_WriteU32(0xE0040004, 0x00000001) -- CPU_WriteMem(4 bytes @ 0xE0040004)  returns 0x00 (0001ms, 0219ms total)
T2A6C 000:243 JLINK_WriteU32(0xE0040010, 0x00000004) -- CPU_WriteMem(4 bytes @ 0xE0040010)  returns 0x00 (0000ms, 0219ms total)
T2A6C 000:243 JLINK_WriteU32(0xE00400F0, 0x00000002) -- CPU_WriteMem(4 bytes @ 0xE00400F0)  returns 0x00 (0001ms, 0220ms total)
T2A6C 000:244 JLINK_WriteU32(0xE0040304, 0x00000000) -- CPU_WriteMem(4 bytes @ 0xE0040304)  returns 0x00 (0001ms, 0221ms total)
T2A6C 000:245 JLINK_WriteU32(0xE0000FB0, 0xC5ACCE55) -- CPU_WriteMem(4 bytes @ 0xE0000FB0)  returns 0x00 (0000ms, 0221ms total)
T2A6C 000:245 JLINK_WriteU32(0xE0000E80, 0x0001000D) -- CPU_WriteMem(4 bytes @ 0xE0000E80)  returns 0x00 (0001ms, 0222ms total)
T2A6C 000:246 JLINK_WriteU32(0xE0000E00, 0xFFFFFFFF) -- CPU_WriteMem(4 bytes @ 0xE0000E00)  returns 0x00 (0000ms, 0222ms total)
T2A6C 000:246 JLINK_WriteU32(0xE0000E40, 0x00000008) -- CPU_WriteMem(4 bytes @ 0xE0000E40)  returns 0x00 (0001ms, 0223ms total)
T2A6C 000:248 JLINK_WriteU32(0xE0001000, 0x0001061F) -- CPU_WriteMem(4 bytes @ 0xE0001000)  returns 0x00 (0000ms, 0223ms total)
T2A6C 000:338 JLINK_SetResetType(JLINKARM_RESET_TYPE_NORMAL)  returns JLINKARM_RESET_TYPE_NORMAL (0000ms, 0223ms total)
T2A6C 000:338 JLINK_Reset() -- CPU_WriteMem(4 bytes @ 0xE0002000) -- CPU_ReadMem(4 bytes @ 0xE000EDFC) -- CPU_WriteMem(4 bytes @ 0xE000EDFC) -- CPU_ReadMem(4 bytes @ 0xE0001000) (0012ms, 0235ms total)
T2A6C 000:351 JLINK_WriteU32(0xE000EDFC, 0x01000000) -- CPU_WriteMem(4 bytes @ 0xE000EDFC)  returns 0x00 (0000ms, 0235ms total)
T2A6C 000:351 JLINK_ReadReg(R15 (PC))  returns 0x08000200 (0000ms, 0235ms total)
T2A6C 000:351 JLINK_ReadReg(XPSR)  returns 0x01000000 (0001ms, 0236ms total)
T2A6C 000:482 JLINK_ReadMem (0x08000134, 0x003C Bytes, ...) -- CPU_ReadMem(128 bytes @ 0x08000100) -- Updating C cache (128 bytes @ 0x08000100) -- Read from C cache (60 bytes @ 0x08000134) - Data: 00 F0 02 F8 00 F0 3A F8 0A A0 90 E8 00 0C 82 44 ...  returns 0x00 (0002ms, 0238ms total)
T2A6C 000:485 JLINK_ReadMem (0x08000170, 0x003C Bytes, ...) -- CPU_ReadMem(64 bytes @ 0x08000180) -- Updating C cache (64 bytes @ 0x08000180) -- Read from C cache (60 bytes @ 0x08000170) - Data: 10 3A 24 BF 78 C8 78 C1 FA D8 52 07 24 BF 30 C8 ...  returns 0x00 (0001ms, 0239ms total)
T2A6C 000:486 JLINK_ReadMem (0x080001AC, 0x003C Bytes, ...) -- CPU_ReadMem(64 bytes @ 0x080001C0) -- Updating C cache (64 bytes @ 0x080001C0) -- Read from C cache (60 bytes @ 0x080001AC) - Data: 10 B5 10 BD 00 F0 70 F8 11 46 FF F7 F7 FF 00 F0 ...  returns 0x00 (0001ms, 0240ms total)
T2A6C 000:487 JLINK_ReadMem (0x080001E8, 0x003C Bytes, ...) -- CPU_ReadMem(64 bytes @ 0x08000200) -- Updating C cache (64 bytes @ 0x08000200) -- Read from C cache (60 bytes @ 0x080001E8) - Data: 10 68 B0 E8 F0 0F 80 F3 09 88 4E F0 04 0E 70 47 ...  returns 0x00 (0001ms, 0241ms total)
T2A6C 000:532 JLINK_WriteU32(0xE0001008, 0x00000000) -- CPU_WriteMem(4 bytes @ 0xE0001008)  returns 0x00 (0001ms, 0242ms total)
T2A6C 000:533 JLINK_WriteU32(0xE000100C, 0x00000000) -- CPU_WriteMem(4 bytes @ 0xE000100C)  returns 0x00 (0000ms, 0242ms total)
T2A6C 000:533 JLINK_WriteU32(0xE0001010, 0x00000000) -- CPU_WriteMem(4 bytes @ 0xE0001010)  returns 0x00 (0001ms, 0243ms total)
T2A6C 000:534 JLINK_WriteU32(0xE0001014, 0x00000000) -- CPU_WriteMem(4 bytes @ 0xE0001014)  returns 0x00 (0001ms, 0244ms total)
T2A6C 000:535 JLINK_WriteU32(0xE0001018, 0x00000000) -- CPU_WriteMem(4 bytes @ 0xE0001018)  returns 0x00 (0001ms, 0245ms total)
T2A6C 001:692 JLINK_ReadMem (0x20000000, 0x0004 Bytes, ...) -- CPU_ReadMem(64 bytes @ 0x20000000) -- Updating C cache (64 bytes @ 0x20000000) -- Read from C cache (4 bytes @ 0x20000000) - Data: FE E7 0A E0  returns 0x00 (0001ms, 0246ms total)
T2A6C 001:700 JLINK_ReadMem (0x20000034, 0x0004 Bytes, ...) -- Read from C cache (4 bytes @ 0x20000034) - Data: 70 47 00 00  returns 0x00 (0000ms, 0246ms total)
T2A6C 001:707 JLINK_WriteMem(0xE0001050, 0x000C Bytes, ...) - Data: 00 00 00 20 02 00 00 00 02 00 00 00 -- CPU_WriteMem(12 bytes @ 0xE0001050)  returns 0x0C (0001ms, 0247ms total)
T2A6C 001:708 JLINK_ReadMem (0xE0001050, 0x000C Bytes, ...) -- CPU_ReadMem(12 bytes @ 0xE0001050) - Data: 00 00 00 20 02 00 00 00 02 00 00 01  returns 0x00 (0001ms, 0248ms total)
T2C0C 001:726 JLINK_SetBPEx(Addr = 0x08000468, Type = 0xFFFFFFF2)  returns 0x00000001 (0000ms, 0248ms total)
T2C0C 001:726 JLINK_SetBPEx(Addr = 0x08000A88, Type = 0xFFFFFFF2)  returns 0x00000002 (0000ms, 0248ms total)
T2C0C 001:726 JLINK_ReadMemU32(0xE0001004, 0x0001 Items, ...) -- CPU_ReadMem(4 bytes @ 0xE0001004) - Data: 00 00 00 00  returns 0x01 (0001ms, 0249ms total)
T2C0C 001:727 JLINK_WriteU32(0xE0001004, 0x000003FF) -- CPU_WriteMem(4 bytes @ 0xE0001004)  returns 0x00 (0001ms, 0250ms total)
T2C0C 001:728 JLINK_WriteU32(0xE0001000, 0x0041061F) -- CPU_WriteMem(4 bytes @ 0xE0001000)  returns 0x00 (0000ms, 0250ms total)
T2C0C 001:728 JLINK_WriteU32(0xE0000E80, 0x0001000F) -- CPU_WriteMem(4 bytes @ 0xE0000E80)  returns 0x00 (0001ms, 0251ms total)
T2C0C 001:730 JLINK_SWO_Control(JLINKARM_SWO_CMD_GET_NUM_BYTES, ...)  returns 0x00 (0000ms, 0251ms total)
T2C0C 001:730 JLINK_Go() -- CPU_WriteMem(4 bytes @ 0xE0002000) -- CPU_WriteMem(4 bytes @ 0xE0002000) -- CPU_ReadMem(4 bytes @ 0xE0001000) -- CPU_WriteMem(4 bytes @ 0xE0002008) -- CPU_WriteMem(4 bytes @ 0xE000200C) -- CPU_WriteMem(4 bytes @ 0xE0002010) -- CPU_WriteMem(4 bytes @ 0xE0002014) -- CPU_WriteMem(4 bytes @ 0xE0002018) -- CPU_WriteMem(4 bytes @ 0xE000201C) -- CPU_WriteMem(4 bytes @ 0xE0001004) (0006ms, 0257ms total)
T2C0C 001:737 JLINK_WriteU32(0xE0001000, 0x0001061F) -- CPU is running -- CPU_WriteMem(4 bytes @ 0xE0001000)  returns 0x00 (0000ms, 0257ms total)
T2C0C 001:837 JLINK_SWO_Read(..., Offset = 0x00, NumBytes = 0x400000) - Data: 0B 04 E3 07 07 10  NumBytesRead = 0x06 (0000ms, 0257ms total)
T2C0C 001:839 JLINK_SWO_Control(JLINKARM_SWO_CMD_FLUSH, ...)  returns 0x00 (0000ms, 0257ms total)
T2C0C 001:839 JLINK_IsHalted()  returns TRUE (0004ms, 0261ms total)
T2C0C 001:844 JLINK_Halt()  returns 0x00 (0000ms, 0257ms total)
T2C0C 001:844 JLINK_IsHalted()  returns TRUE (0000ms, 0257ms total)
T2C0C 001:844 JLINK_IsHalted()  returns TRUE (0000ms, 0257ms total)
T2C0C 001:844 JLINK_IsHalted()  returns TRUE (0000ms, 0257ms total)
T2C0C 001:844 JLINK_ReadReg(R15 (PC))  returns 0x08000468 (0000ms, 0257ms total)
T2C0C 001:844 JLINK_ReadReg(XPSR)  returns 0x21000000 (0000ms, 0257ms total)
T2C0C 001:844 JLINK_SWO_Read(..., Offset = 0x00, NumBytes = 0x400000) - Data:  NumBytesRead = 0x00 (0000ms, 0257ms total)
T2C0C 001:846 JLINK_SWO_Control(JLINKARM_SWO_CMD_FLUSH, ...)  returns 0x00 (0000ms, 0257ms total)
T2C0C 001:846 JLINK_ClrBPEx(BPHandle = 0x00000001)  returns 0x00 (0000ms, 0257ms total)
T2C0C 001:846 JLINK_ClrBPEx(BPHandle = 0x00000002)  returns 0x00 (0000ms, 0257ms total)
T2C0C 001:846 JLINK_ReadMemU32(0xE000ED30, 0x0001 Items, ...) -- CPU_ReadMem(4 bytes @ 0xE000ED30) - Data: 03 00 00 00  returns 0x01 (0000ms, 0257ms total)
T2C0C 001:846 JLINK_ReadMemU32(0xE0001028, 0x0001 Items, ...) -- CPU_ReadMem(4 bytes @ 0xE0001028) - Data: 00 00 00 00  returns 0x01 (0001ms, 0258ms total)
T2C0C 001:847 JLINK_ReadMemU32(0xE0001038, 0x0001 Items, ...) -- CPU_ReadMem(4 bytes @ 0xE0001038) - Data: 00 02 00 00  returns 0x01 (0001ms, 0259ms total)
T2C0C 001:848 JLINK_ReadMemU32(0xE0001048, 0x0001 Items, ...) -- CPU_ReadMem(4 bytes @ 0xE0001048) - Data: 00 00 00 00  returns 0x01 (0000ms, 0259ms total)
T2C0C 001:848 JLINK_ReadReg(R0)  returns 0x20005268 (0000ms, 0259ms total)
T2C0C 001:848 JLINK_ReadReg(R1)  returns 0x20005468 (0000ms, 0259ms total)
T2C0C 001:848 JLINK_ReadReg(R2)  returns 0x20005468 (0001ms, 0260ms total)
T2C0C 001:849 JLINK_ReadReg(R3)  returns 0x20005468 (0000ms, 0260ms total)
T2C0C 001:849 JLINK_ReadReg(R4)  returns 0x00000000 (0000ms, 0260ms total)
T2C0C 001:849 JLINK_ReadReg(R5)  returns 0x20005208 (0000ms, 0260ms total)
T2C0C 001:849 JLINK_ReadReg(R6)  returns 0x00000000 (0000ms, 0260ms total)
T2C0C 001:849 JLINK_ReadReg(R7)  returns 0x00000000 (0000ms, 0260ms total)
T2C0C 001:849 JLINK_ReadReg(R8)  returns 0x00000000 (0000ms, 0260ms total)
T2C0C 001:849 JLINK_ReadReg(R9)  returns 0x20000160 (0000ms, 0260ms total)
T2C0C 001:849 JLINK_ReadReg(R10)  returns 0x08000C20 (0000ms, 0260ms total)
T2C0C 001:849 JLINK_ReadReg(R11)  returns 0x00000000 (0000ms, 0260ms total)
T2C0C 001:849 JLINK_ReadReg(R12)  returns 0x20005248 (0000ms, 0260ms total)
T2C0C 001:849 JLINK_ReadReg(R13 (SP))  returns 0x20005868 (0000ms, 0260ms total)
T2C0C 001:849 JLINK_ReadReg(R14)  returns 0x080001BF (0000ms, 0260ms total)
T2C0C 001:849 JLINK_ReadReg(R15 (PC))  returns 0x08000468 (0000ms, 0260ms total)
T2C0C 001:849 JLINK_ReadReg(XPSR)  returns 0x21000000 (0000ms, 0260ms total)
T2C0C 001:849 JLINK_ReadReg(MSP)  returns 0x20005868 (0000ms, 0260ms total)
T2C0C 001:849 JLINK_ReadReg(PSP)  returns 0x20001000 (0000ms, 0260ms total)
T2C0C 001:849 JLINK_ReadReg(CFBP)  returns 0x00000000 (0000ms, 0260ms total)
T2A6C 001:851 JLINK_ReadMemU32(0xE0001004, 0x0001 Items, ...) -- CPU_ReadMem(4 bytes @ 0xE0001004) - Data: 97 38 00 00  returns 0x01 (0001ms, 0261ms total)
T2A6C 001:852 JLINK_ReadMem (0x20000000, 0x0004 Bytes, ...) -- CPU_ReadMem(64 bytes @ 0x20000000) -- Updating C cache (64 bytes @ 0x20000000) -- Read from C cache (4 bytes @ 0x20000000) - Data: 00 00 00 00  returns 0x00 (0001ms, 0262ms total)
T2A6C 001:855 JLINK_ReadMem (0x20000034, 0x0004 Bytes, ...) -- Read from C cache (4 bytes @ 0x20000034) - Data: 00 36 6E 01  returns 0x00 (0000ms, 0262ms total)
T2A6C 001:861 JLINK_ReadMem (0x08000368, 0x003C Bytes, ...) -- CPU_ReadMem(128 bytes @ 0x08000340) -- Updating C cache (128 bytes @ 0x08000340) -- Read from C cache (60 bytes @ 0x08000368) - Data: 48 60 08 46 40 68 48 60 08 46 40 68 20 F4 7C 10 ...  returns 0x00 (0001ms, 0263ms total)
T2A6C 001:862 JLINK_ReadMem (0x080003A4, 0x003C Bytes, ...) -- CPU_ReadMem(64 bytes @ 0x080003C0) -- Updating C cache (64 bytes @ 0x080003C0) -- Read from C cache (60 bytes @ 0x080003A4) - Data: 07 49 48 60 08 46 40 68 40 F0 02 00 48 60 00 BF ...  returns 0x00 (0001ms, 0264ms total)
T2A6C 001:863 JLINK_ReadMem (0x080003E0, 0x0020 Bytes, ...) -- Read from C cache (32 bytes @ 0x080003E0) - Data: 40 68 11 49 08 40 0F 49 48 60 08 46 00 68 0F 49 ...  returns 0x00 (0000ms, 0264ms total)
T2A6C 001:863 JLINK_ReadMem (0x08000400, 0x001C Bytes, ...) -- CPU_ReadMem(64 bytes @ 0x08000400) -- Updating C cache (64 bytes @ 0x08000400) -- Read from C cache (28 bytes @ 0x08000400) - Data: 08 46 40 68 20 F4 FE 00 48 60 4F F4 1F 00 88 60 ...  returns 0x00 (0001ms, 0265ms total)
T2A6C 001:864 JLINK_ReadMem (0x0800041C, 0x003C Bytes, ...) -- CPU_ReadMem(64 bytes @ 0x08000440) -- Updating C cache (64 bytes @ 0x08000440) -- Read from C cache (60 bytes @ 0x0800041C) - Data: 04 49 08 60 10 BD 00 00 00 10 02 40 00 00 FF F8 ...  returns 0x00 (0001ms, 0266ms total)
T2A6C 001:866 JLINK_ReadMem (0x08000458, 0x003C Bytes, ...) -- CPU_ReadMem(64 bytes @ 0x08000480) -- Updating C cache (64 bytes @ 0x08000480) -- Read from C cache (60 bytes @ 0x08000458) - Data: 20 46 00 F0 45 F9 00 F0 72 F8 F1 E7 2C 00 00 20 ...  returns 0x00 (0001ms, 0267ms total)
T2A6C 008:434 JLINK_ReadMem (0x08000A94, 0x003C Bytes, ...) -- CPU_ReadMem(128 bytes @ 0x08000A80) -- Updating C cache (128 bytes @ 0x08000A80) -- Read from C cache (60 bytes @ 0x08000A94) - Data: 64 20 FF F7 03 FE F2 E7 00 00 00 20 00 BF 01 20 ...  returns 0x00 (0002ms, 0269ms total)
T2C0C 010:572 JLINK_SetBPEx(Addr = 0x08000A88, Type = 0xFFFFFFF2)  returns 0x00000003 (0000ms, 0269ms total)
T2C0C 010:572 JLINK_ReadMemU32(0xE0001004, 0x0001 Items, ...) - Data: 97 38 00 00  returns 0x01 (0000ms, 0269ms total)
T2C0C 010:573 JLINK_WriteU32(0xE0001004, 0x00003BFF) -- CPU_WriteMem(4 bytes @ 0xE0001004)  returns 0x00 (0001ms, 0271ms total)
T2C0C 010:574 JLINK_WriteU32(0xE0001000, 0x0041061F)  returns 0x00 (0000ms, 0271ms total)
T2C0C 010:574 JLINK_WriteU32(0xE0000E80, 0x0001000F)  returns 0x00 (0000ms, 0271ms total)
T2C0C 010:574 JLINK_SWO_Control(JLINKARM_SWO_CMD_GET_NUM_BYTES, ...)  returns 0xCD (0000ms, 0271ms total)
T2C0C 010:574 JLINK_SWO_Control(JLINKARM_SWO_CMD_FLUSH, ...)  returns 0x00 (0000ms, 0271ms total)
T2C0C 010:574 JLINK_Go() -- CPU_WriteMem(4 bytes @ 0xE0002000) -- CPU_WriteMem(4 bytes @ 0xE0001000) -- CPU_ReadMem(4 bytes @ 0xE0001000) -- CPU_WriteMem(4 bytes @ 0xE0000E80) -- CPU_WriteMem(4 bytes @ 0xE0002008) -- CPU_WriteMem(4 bytes @ 0xE000200C) (0007ms, 0278ms total)
T2C0C 010:581 JLINK_WriteU32(0xE0001000, 0x0001061F) -- CPU is running -- CPU_WriteMem(4 bytes @ 0xE0001000)  returns 0x00 (0001ms, 0279ms total)
T2C0C 010:682 JLINK_SWO_Read(..., Offset = 0x00, NumBytes = 0x400000) - Data: FF 1E 1E 1E DE 14 37 EE 14 34 5C  NumBytesRead = 0x0B (0000ms, 0279ms total)
T2C0C 010:683 JLINK_SWO_Control(JLINKARM_SWO_CMD_FLUSH, ...)  returns 0x00 (0000ms, 0279ms total)
T2C0C 010:683 JLINK_IsHalted()  returns TRUE (0005ms, 0284ms total)
T2C0C 010:688 JLINK_Halt()  returns 0x00 (0000ms, 0279ms total)
T2C0C 010:688 JLINK_IsHalted()  returns TRUE (0000ms, 0279ms total)
T2C0C 010:688 JLINK_IsHalted()  returns TRUE (0000ms, 0279ms total)
T2C0C 010:688 JLINK_IsHalted()  returns TRUE (0000ms, 0279ms total)
T2C0C 010:688 JLINK_ReadReg(R15 (PC))  returns 0x08000A88 (0000ms, 0279ms total)
T2C0C 010:688 JLINK_ReadReg(XPSR)  returns 0x01000000 (0000ms, 0279ms total)
T2C0C 010:688 JLINK_SWO_Read(..., Offset = 0x00, NumBytes = 0x400000) - Data:  NumBytesRead = 0x00 (0000ms, 0279ms total)
T2C0C 010:690 JLINK_SWO_Control(JLINKARM_SWO_CMD_FLUSH, ...)  returns 0x00 (0000ms, 0279ms total)
T2C0C 010:690 JLINK_ClrBPEx(BPHandle = 0x00000003)  returns 0x00 (0000ms, 0279ms total)
T2C0C 010:690 JLINK_ReadMemU32(0xE000ED30, 0x0001 Items, ...) -- CPU_ReadMem(4 bytes @ 0xE000ED30) - Data: 03 00 00 00  returns 0x01 (0000ms, 0279ms total)
T2C0C 010:690 JLINK_ReadMemU32(0xE0001028, 0x0001 Items, ...) -- CPU_ReadMem(4 bytes @ 0xE0001028) - Data: 00 00 00 00  returns 0x01 (0001ms, 0280ms total)
T2C0C 010:691 JLINK_ReadMemU32(0xE0001038, 0x0001 Items, ...) -- CPU_ReadMem(4 bytes @ 0xE0001038) - Data: 00 02 00 00  returns 0x01 (0001ms, 0281ms total)
T2C0C 010:692 JLINK_ReadMemU32(0xE0001048, 0x0001 Items, ...) -- CPU_ReadMem(4 bytes @ 0xE0001048) - Data: 00 00 00 00  returns 0x01 (0000ms, 0281ms total)
T2C0C 010:692 JLINK_ReadReg(R0)  returns 0x00000001 (0000ms, 0281ms total)
T2C0C 010:692 JLINK_ReadReg(R1)  returns 0x20000000 (0000ms, 0281ms total)
T2C0C 010:693 JLINK_ReadReg(R2)  returns 0x00000002 (0000ms, 0282ms total)
T2C0C 010:693 JLINK_ReadReg(R3)  returns 0x00000003 (0000ms, 0282ms total)
T2C0C 010:693 JLINK_ReadReg(R4)  returns 0x00000004 (0000ms, 0282ms total)
T2C0C 010:693 JLINK_ReadReg(R5)  returns 0x00000005 (0000ms, 0282ms total)
T2C0C 010:693 JLINK_ReadReg(R6)  returns 0x00000006 (0000ms, 0282ms total)
T2C0C 010:693 JLINK_ReadReg(R7)  returns 0x00000007 (0000ms, 0282ms total)
T2C0C 010:693 JLINK_ReadReg(R8)  returns 0x00000008 (0000ms, 0282ms total)
T2C0C 010:693 JLINK_ReadReg(R9)  returns 0x00000009 (0000ms, 0282ms total)
T2C0C 010:693 JLINK_ReadReg(R10)  returns 0x00000010 (0000ms, 0282ms total)
T2C0C 010:693 JLINK_ReadReg(R11)  returns 0x00000011 (0000ms, 0282ms total)
T2C0C 010:693 JLINK_ReadReg(R12)  returns 0x00000012 (0000ms, 0282ms total)
T2C0C 010:693 JLINK_ReadReg(R13 (SP))  returns 0x20001188 (0000ms, 0282ms total)
T2C0C 010:693 JLINK_ReadReg(R14)  returns 0x00000014 (0000ms, 0282ms total)
T2C0C 010:693 JLINK_ReadReg(R15 (PC))  returns 0x08000A88 (0000ms, 0282ms total)
T2C0C 010:693 JLINK_ReadReg(XPSR)  returns 0x01000000 (0000ms, 0282ms total)
T2C0C 010:693 JLINK_ReadReg(MSP)  returns 0x20005838 (0000ms, 0282ms total)
T2C0C 010:693 JLINK_ReadReg(PSP)  returns 0x20001188 (0000ms, 0282ms total)
T2C0C 010:693 JLINK_ReadReg(CFBP)  returns 0x02000000 (0000ms, 0282ms total)
T2A6C 010:694 JLINK_ReadMem (0x00000000, 0x0004 Bytes, ...) -- CPU_ReadMem(4 bytes @ 0x00000004) -- CPU_ReadMem(64 bytes @ 0x08000000) -- Updating C cache (64 bytes @ 0x08000000) -- Read from C cache (4 bytes @ 0x08000000) - Data: 68 58 00 20  returns 0x00 (0002ms, 0284ms total)
T2A6C 010:696 JLINK_ReadMemU32(0xE0001004, 0x0001 Items, ...) -- CPU_ReadMem(4 bytes @ 0xE0001004) - Data: 34 60 00 00  returns 0x01 (0001ms, 0285ms total)
T2A6C 010:697 JLINK_ReadMem (0x20000000, 0x0004 Bytes, ...) -- CPU_ReadMem(64 bytes @ 0x20000000) -- Updating C cache (64 bytes @ 0x20000000) -- Read from C cache (4 bytes @ 0x20000000) - Data: 01 00 00 00  returns 0x00 (0001ms, 0286ms total)
T2A6C 010:701 JLINK_ReadMem (0x20000034, 0x0004 Bytes, ...) -- Read from C cache (4 bytes @ 0x20000034) - Data: 00 36 6E 01  returns 0x00 (0000ms, 0286ms total)
T2A6C 010:706 JLINK_ReadMem (0x08000A82, 0x0002 Bytes, ...) -- CPU_ReadMem(64 bytes @ 0x08000A80) -- Updating C cache (64 bytes @ 0x08000A80) -- Read from C cache (2 bytes @ 0x08000A82) - Data: 01 20  returns 0x00 (0001ms, 0287ms total)
T2A6C 010:707 JLINK_ReadMem (0x08000A84, 0x003C Bytes, ...) -- Read from C cache (60 bytes @ 0x08000A84) - Data: 05 49 08 60 64 20 FF F7 09 FE 00 20 02 49 08 60 ...  returns 0x00 (0000ms, 0287ms total)
T2C0C 014:577 JLINK_ReadMemU32(0xE0001004, 0x0001 Items, ...) - Data: 34 60 00 00  returns 0x01 (0000ms, 0287ms total)
T2C0C 014:577 JLINK_WriteU32(0xE0001004, 0x000063FF) -- CPU_WriteMem(4 bytes @ 0xE0001004)  returns 0x00 (0001ms, 0288ms total)
T2C0C 014:578 JLINK_WriteU32(0xE0001000, 0x0041061F)  returns 0x00 (0000ms, 0288ms total)
T2C0C 014:578 JLINK_WriteU32(0xE0000E80, 0x0001000F)  returns 0x00 (0000ms, 0288ms total)
T2C0C 014:578 JLINK_SWO_Control(JLINKARM_SWO_CMD_GET_NUM_BYTES, ...)  returns 0x5F (0000ms, 0288ms total)
T2C0C 014:578 JLINK_SWO_Control(JLINKARM_SWO_CMD_FLUSH, ...)  returns 0x00 (0000ms, 0288ms total)
T2C0C 014:578 JLINK_Step() -- Read from C cache (2 bytes @ 0x08000A88) -- CPU_ReadMem(4 bytes @ 0xE000ED18) -- CPU_WriteMem(4 bytes @ 0xE000ED18) -- CPU_ReadMem(4 bytes @ 0xE000ED18) -- CPU_WriteMem(4 bytes @ 0xE000ED18) -- Simulated  returns 0x00 (0003ms, 0291ms total)
T2C0C 014:582 JLINK_ReadReg(R15 (PC))  returns 0x08000A8A (0000ms, 0291ms total)
T2C0C 014:582 JLINK_ReadReg(XPSR)  returns 0x01000000 (0000ms, 0291ms total)
T2C0C 014:582 JLINK_SetBPEx(Addr = 0x08000A8E, Type = 0xFFFFFFF2)  returns 0x00000004 (0000ms, 0291ms total)
T2C0C 014:582 JLINK_SetBPEx(Addr = 0x08000A88, Type = 0xFFFFFFF2)  returns 0x00000005 (0000ms, 0291ms total)
T2C0C 014:582 JLINK_ReadMemU32(0xE0001004, 0x0001 Items, ...) - Data: FF 63 00 00  returns 0x01 (0000ms, 0291ms total)
T2C0C 014:582 JLINK_WriteU32(0xE0001004, 0x000063FF)  returns 0x00 (0000ms, 0291ms total)
T2C0C 014:582 JLINK_WriteU32(0xE0001000, 0x0041061F)  returns 0x00 (0000ms, 0291ms total)
T2C0C 014:582 JLINK_WriteU32(0xE0000E80, 0x0001000F)  returns 0x00 (0000ms, 0291ms total)
T2C0C 014:582 JLINK_SWO_Control(JLINKARM_SWO_CMD_GET_NUM_BYTES, ...)  returns 0x03 (0001ms, 0292ms total)
T2C0C 014:583 JLINK_SWO_Control(JLINKARM_SWO_CMD_FLUSH, ...)  returns 0x00 (0000ms, 0292ms total)
T2C0C 014:583 JLINK_Go() -- CPU_WriteMem(4 bytes @ 0xE0002000) -- CPU_WriteMem(4 bytes @ 0xE0002000) -- CPU_WriteMem(4 bytes @ 0xE0001000) -- CPU_ReadMem(4 bytes @ 0xE0001000) -- CPU_WriteMem(4 bytes @ 0xE0000E80) -- CPU_WriteMem(4 bytes @ 0xE0002008) -- CPU_WriteMem(4 bytes @ 0xE000200C) -- CPU_WriteMem(4 bytes @ 0xE0001004) (0008ms, 0300ms total)
T2C0C 014:591 JLINK_WriteU32(0xE0001000, 0x0001061F) -- CPU is running -- CPU_WriteMem(4 bytes @ 0xE0001000)  returns 0x00 (0001ms, 0301ms total)
T2C0C 014:692 JLINK_SWO_Read(..., Offset = 0x00, NumBytes = 0x400000) - Data: 10 3F 60 70 81 58 28 19 10 39 59 FF 2D FE AD 14 ...  NumBytesRead = 0xDD (0000ms, 0301ms total)
T2C0C 014:693 JLINK_SWO_Control(JLINKARM_SWO_CMD_FLUSH, ...)  returns 0x00 (0000ms, 0301ms total)
T2C0C 014:693 JLINK_IsHalted()  returns FALSE (0000ms, 0301ms total)
T2C0C 014:793 JLINK_SWO_Read(..., Offset = 0x00, NumBytes = 0x400000) - Data: 14 B3 54 33 00 18 0B 06 14 16 15 0E 15 06 14 B3 ...  NumBytesRead = 0xCD (0000ms, 0301ms total)
T2C0C 014:794 JLINK_SWO_Control(JLINKARM_SWO_CMD_FLUSH, ...)  returns 0x00 (0000ms, 0301ms total)
T2C0C 014:794 JLINK_IsHalted()  returns FALSE (0000ms, 0301ms total)
T2C0C 014:894 JLINK_SWO_Read(..., Offset = 0x00, NumBytes = 0x400000) - Data: 14 E5 55 32 00 04 06 15 1E 14 0E 15 0E 14 88 54 ...  NumBytesRead = 0xCD (0000ms, 0301ms total)
T2C0C 014:895 JLINK_SWO_Control(JLINKARM_SWO_CMD_FLUSH, ...)  returns 0x00 (0000ms, 0301ms total)
T2C0C 014:895 JLINK_IsHalted()  returns FALSE (0000ms, 0301ms total)
T2C0C 014:995 JLINK_SWO_Read(..., Offset = 0x00, NumBytes = 0x400000) - Data: 14 88 54 32 40 10 03 0E 15 16 15 06 14 06 14 88 ...  NumBytesRead = 0xCE (0000ms, 0301ms total)
T2C0C 014:996 JLINK_SWO_Control(JLINKARM_SWO_CMD_FLUSH, ...)  returns 0x00 (0000ms, 0301ms total)
T2C0C 015:041 JLINK_IsHalted()  returns FALSE (0001ms, 0302ms total)
T2C0C 015:142 JLINK_SWO_Read(..., Offset = 0x00, NumBytes = 0x400000) - Data: 14 F6 54 33 00 18 0B 06 14 16 15 0E 15 06 15 C8 ...  NumBytesRead = 0x130 (0000ms, 0301ms total)
T2C0C 015:143 JLINK_SWO_Control(JLINKARM_SWO_CMD_FLUSH, ...)  returns 0x00 (0000ms, 0301ms total)
T2C0C 015:143 JLINK_ReadMemU32(0xE0001004, 0x0001 Items, ...) -- CPU is running -- CPU_ReadMem(4 bytes @ 0xE0001004) - Data: C2 13 30 01  returns 0x01 (0000ms, 0301ms total)
T2A6C 015:150 JLINK_ReadMem (0x20000000, 0x0004 Bytes, ...) -- CPU is running -- CPU_ReadMem(4 bytes @ 0x20000000) - Data: 01 00 00 00  returns 0x00 (0001ms, 0302ms total)
T2A6C 015:152 JLINK_ReadMem (0x20000034, 0x0004 Bytes, ...) -- CPU is running -- CPU_ReadMem(4 bytes @ 0x20000034) - Data: 00 36 6E 01  returns 0x00 (0001ms, 0303ms total)
T2C0C 015:156 JLINK_IsHalted()  returns FALSE (0001ms, 0304ms total)
T2C0C 015:257 JLINK_SWO_Read(..., Offset = 0x00, NumBytes = 0x400000) - Data: 14 88 54 32 40 10 03 0E 15 1E 15 06 17 0E 14 88 ...  NumBytesRead = 0xEA (0000ms, 0303ms total)
T2C0C 015:258 JLINK_SWO_Control(JLINKARM_SWO_CMD_FLUSH, ...)  returns 0x00 (0000ms, 0303ms total)
T2C0C 015:258 JLINK_IsHalted()  returns TRUE (0003ms, 0306ms total)
T2C0C 015:262 JLINK_Halt()  returns 0x00 (0000ms, 0303ms total)
T2C0C 015:262 JLINK_IsHalted()  returns TRUE (0000ms, 0303ms total)
T2C0C 015:262 JLINK_IsHalted()  returns TRUE (0000ms, 0303ms total)
T2C0C 015:262 JLINK_IsHalted()  returns TRUE (0000ms, 0303ms total)
T2C0C 015:262 JLINK_ReadReg(R15 (PC))  returns 0x08000A8E (0000ms, 0303ms total)
T2C0C 015:262 JLINK_ReadReg(XPSR)  returns 0x21000000 (0000ms, 0303ms total)
T2C0C 015:262 JLINK_SWO_Read(..., Offset = 0x00, NumBytes = 0x400000) - Data: 14 89 14  NumBytesRead = 0x03 (0000ms, 0304ms total)
T2C0C 015:264 JLINK_SWO_Control(JLINKARM_SWO_CMD_FLUSH, ...)  returns 0x00 (0000ms, 0304ms total)
T2C0C 015:264 JLINK_ClrBPEx(BPHandle = 0x00000004)  returns 0x00 (0000ms, 0304ms total)
T2C0C 015:264 JLINK_ClrBPEx(BPHandle = 0x00000005)  returns 0x00 (0000ms, 0304ms total)
T2C0C 015:264 JLINK_ReadMemU32(0xE000ED30, 0x0001 Items, ...) -- CPU_ReadMem(4 bytes @ 0xE000ED30) - Data: 03 00 00 00  returns 0x01 (0001ms, 0305ms total)
T2C0C 015:265 JLINK_ReadMemU32(0xE0001028, 0x0001 Items, ...) -- CPU_ReadMem(4 bytes @ 0xE0001028) - Data: 00 00 00 00  returns 0x01 (0000ms, 0305ms total)
T2C0C 015:265 JLINK_ReadMemU32(0xE0001038, 0x0001 Items, ...) -- CPU_ReadMem(4 bytes @ 0xE0001038) - Data: 00 02 00 00  returns 0x01 (0001ms, 0306ms total)
T2C0C 015:266 JLINK_ReadMemU32(0xE0001048, 0x0001 Items, ...) -- CPU_ReadMem(4 bytes @ 0xE0001048) - Data: 00 00 00 00  returns 0x01 (0001ms, 0307ms total)
T2C0C 015:267 JLINK_ReadReg(R0)  returns 0x00000000 (0000ms, 0307ms total)
T2C0C 015:267 JLINK_ReadReg(R1)  returns 0xE000ED04 (0000ms, 0307ms total)
T2C0C 015:267 JLINK_ReadReg(R2)  returns 0x00000003 (0000ms, 0307ms total)
T2C0C 015:267 JLINK_ReadReg(R3)  returns 0x00000001 (0000ms, 0307ms total)
T2C0C 015:267 JLINK_ReadReg(R4)  returns 0x00000004 (0000ms, 0307ms total)
T2C0C 015:267 JLINK_ReadReg(R5)  returns 0x00000005 (0000ms, 0307ms total)
T2C0C 015:267 JLINK_ReadReg(R6)  returns 0x00000006 (0000ms, 0307ms total)
T2C0C 015:267 JLINK_ReadReg(R7)  returns 0x00000007 (0000ms, 0307ms total)
T2C0C 015:267 JLINK_ReadReg(R8)  returns 0x00000008 (0000ms, 0307ms total)
T2C0C 015:267 JLINK_ReadReg(R9)  returns 0x00000009 (0000ms, 0307ms total)
T2C0C 015:267 JLINK_ReadReg(R10)  returns 0x00000010 (0000ms, 0307ms total)
T2C0C 015:267 JLINK_ReadReg(R11)  returns 0x00000011 (0000ms, 0307ms total)
T2C0C 015:267 JLINK_ReadReg(R12)  returns 0x00000012 (0000ms, 0307ms total)
T2C0C 015:267 JLINK_ReadReg(R13 (SP))  returns 0x20001188 (0000ms, 0307ms total)
T2C0C 015:267 JLINK_ReadReg(R14)  returns 0x080006C7 (0000ms, 0307ms total)
T2C0C 015:267 JLINK_ReadReg(R15 (PC))  returns 0x08000A8E (0001ms, 0308ms total)
T2C0C 015:268 JLINK_ReadReg(XPSR)  returns 0x21000000 (0000ms, 0308ms total)
T2C0C 015:268 JLINK_ReadReg(MSP)  returns 0x20005838 (0000ms, 0308ms total)
T2C0C 015:268 JLINK_ReadReg(PSP)  returns 0x20001188 (0000ms, 0308ms total)
T2C0C 015:268 JLINK_ReadReg(CFBP)  returns 0x02000000 (0000ms, 0308ms total)
T2A6C 015:276 JLINK_ReadMem (0x00000000, 0x0004 Bytes, ...) -- CPU_ReadMem(4 bytes @ 0x00000004) -- CPU_ReadMem(64 bytes @ 0x08000000) -- Updating C cache (64 bytes @ 0x08000000) -- Read from C cache (4 bytes @ 0x08000000) - Data: 68 58 00 20  returns 0x00 (0002ms, 0310ms total)
T2A6C 015:279 JLINK_ReadMemU32(0xE0001004, 0x0001 Items, ...) -- CPU_ReadMem(4 bytes @ 0xE0001004) - Data: 42 9C 6E 01  returns 0x01 (0000ms, 0310ms total)
T2A6C 015:279 JLINK_ReadMem (0x20000000, 0x0004 Bytes, ...) -- CPU_ReadMem(64 bytes @ 0x20000000) -- Updating C cache (64 bytes @ 0x20000000) -- Read from C cache (4 bytes @ 0x20000000) - Data: 01 00 00 00  returns 0x00 (0001ms, 0311ms total)
T2A6C 015:281 JLINK_ReadMem (0x20000034, 0x0004 Bytes, ...) -- Read from C cache (4 bytes @ 0x20000034) - Data: 00 36 6E 01  returns 0x00 (0000ms, 0312ms total)
T2A6C 015:289 JLINK_ReadMem (0x000000C8, 0x003C Bytes, ...) -- CPU_ReadMem(128 bytes @ 0x080000C0) -- Updating C cache (128 bytes @ 0x080000C0) -- Read from C cache (60 bytes @ 0x080000C8) - Data: 1B 02 00 08 1B 02 00 08 1B 02 00 08 1B 02 00 08 ...  returns 0x00 (0002ms, 0314ms total)
T2C0C 016:065 JLINK_ReadMem (0x08000A8E, 0x0002 Bytes, ...) -- CPU_ReadMem(64 bytes @ 0x08000A80) -- Updating C cache (64 bytes @ 0x08000A80) -- Read from C cache (2 bytes @ 0x08000A8E) - Data: 00 20  returns 0x00 (0003ms, 0317ms total)
T2C0C 016:068 JLINK_ReadMem (0x08000A90, 0x003C Bytes, ...) -- CPU_ReadMem(64 bytes @ 0x08000AC0) -- Updating C cache (64 bytes @ 0x08000AC0) -- Read from C cache (60 bytes @ 0x08000A90) - Data: 02 49 08 60 64 20 FF F7 03 FE F2 E7 00 00 00 20 ...  returns 0x00 (0001ms, 0318ms total)
T2C0C 016:069 JLINK_ReadMemU32(0xE0001004, 0x0001 Items, ...) - Data: 42 9C 6E 01  returns 0x01 (0000ms, 0318ms total)
T2C0C 016:069 JLINK_WriteU32(0xE0001004, 0x016E9FFF) -- CPU_WriteMem(4 bytes @ 0xE0001004)  returns 0x00 (0001ms, 0319ms total)
T2C0C 016:070 JLINK_WriteU32(0xE0001000, 0x0041061F)  returns 0x00 (0000ms, 0319ms total)
T2C0C 016:070 JLINK_WriteU32(0xE0000E80, 0x0001000F)  returns 0x00 (0000ms, 0319ms total)
T2C0C 016:070 JLINK_SWO_Control(JLINKARM_SWO_CMD_GET_NUM_BYTES, ...)  returns 0x15 (0000ms, 0319ms total)
T2C0C 016:070 JLINK_SWO_Control(JLINKARM_SWO_CMD_FLUSH, ...)  returns 0x00 (0000ms, 0319ms total)
T2C0C 016:070 JLINK_Step() -- Read from C cache (2 bytes @ 0x08000A8E) -- Simulated  returns 0x00 (0001ms, 0320ms total)
T2C0C 016:071 JLINK_ReadReg(R15 (PC))  returns 0x08000A90 (0000ms, 0320ms total)
T2C0C 016:071 JLINK_ReadReg(XPSR)  returns 0x61000000 (0000ms, 0320ms total)
T2C0C 016:071 JLINK_ReadMemU32(0xE0001004, 0x0001 Items, ...) - Data: FF 9F 6E 01  returns 0x01 (0000ms, 0320ms total)
T2C0C 016:071 JLINK_WriteU32(0xE0001004, 0x016E9FFF)  returns 0x00 (0000ms, 0320ms total)
T2C0C 016:071 JLINK_WriteU32(0xE0001000, 0x0041061F)  returns 0x00 (0000ms, 0320ms total)
T2C0C 016:071 JLINK_WriteU32(0xE0000E80, 0x0001000F)  returns 0x00 (0000ms, 0320ms total)
T2C0C 016:071 JLINK_SWO_Control(JLINKARM_SWO_CMD_GET_NUM_BYTES, ...)  returns 0x00 (0000ms, 0320ms total)
T2C0C 016:071 JLINK_Step() -- Read from C cache (2 bytes @ 0x08000A90) -- Read from C cache (4 bytes @ 0x08000A9C) -- Simulated  returns 0x00 (0000ms, 0320ms total)
T2C0C 016:071 JLINK_ReadReg(R15 (PC))  returns 0x08000A92 (0000ms, 0320ms total)
T2C0C 016:071 JLINK_ReadReg(XPSR)  returns 0x61000000 (0000ms, 0320ms total)
T2C0C 016:071 JLINK_ReadMemU32(0xE0001004, 0x0001 Items, ...) - Data: FF 9F 6E 01  returns 0x01 (0000ms, 0320ms total)
T2C0C 016:071 JLINK_WriteU32(0xE0001004, 0x016E9FFF)  returns 0x00 (0000ms, 0320ms total)
T2C0C 016:071 JLINK_WriteU32(0xE0001000, 0x0041061F)  returns 0x00 (0001ms, 0321ms total)
T2C0C 016:072 JLINK_WriteU32(0xE0000E80, 0x0001000F)  returns 0x00 (0000ms, 0321ms total)
T2C0C 016:072 JLINK_SWO_Control(JLINKARM_SWO_CMD_GET_NUM_BYTES, ...)  returns 0x00 (0000ms, 0321ms total)
T2C0C 016:072 JLINK_Step() -- Read from C cache (2 bytes @ 0x08000A92) -- CPU_WriteMem(4 bytes @ 0x20000000) -- Simulated  returns 0x00 (0001ms, 0322ms total)
T2C0C 016:073 JLINK_ReadReg(R15 (PC))  returns 0x08000A94 (0000ms, 0322ms total)
T2C0C 016:073 JLINK_ReadReg(XPSR)  returns 0x61000000 (0000ms, 0322ms total)
T2C0C 016:073 JLINK_ReadReg(R0)  returns 0x00000000 (0000ms, 0322ms total)
T2C0C 016:073 JLINK_ReadReg(R1)  returns 0x20000000 (0000ms, 0322ms total)
T2C0C 016:073 JLINK_ReadReg(R2)  returns 0x00000003 (0000ms, 0322ms total)
T2C0C 016:073 JLINK_ReadReg(R3)  returns 0x00000001 (0000ms, 0322ms total)
T2C0C 016:073 JLINK_ReadReg(R4)  returns 0x00000004 (0001ms, 0323ms total)
T2C0C 016:074 JLINK_ReadReg(R5)  returns 0x00000005 (0000ms, 0323ms total)
T2C0C 016:074 JLINK_ReadReg(R6)  returns 0x00000006 (0000ms, 0323ms total)
T2C0C 016:074 JLINK_ReadReg(R7)  returns 0x00000007 (0000ms, 0323ms total)
T2C0C 016:074 JLINK_ReadReg(R8)  returns 0x00000008 (0000ms, 0323ms total)
T2C0C 016:074 JLINK_ReadReg(R9)  returns 0x00000009 (0000ms, 0323ms total)
T2C0C 016:074 JLINK_ReadReg(R10)  returns 0x00000010 (0000ms, 0323ms total)
T2C0C 016:074 JLINK_ReadReg(R11)  returns 0x00000011 (0000ms, 0323ms total)
T2C0C 016:074 JLINK_ReadReg(R12)  returns 0x00000012 (0000ms, 0323ms total)
T2C0C 016:074 JLINK_ReadReg(R13 (SP))  returns 0x20001188 (0000ms, 0323ms total)
T2C0C 016:074 JLINK_ReadReg(R14)  returns 0x080006C7 (0000ms, 0323ms total)
T2C0C 016:074 JLINK_ReadReg(R15 (PC))  returns 0x08000A94 (0000ms, 0323ms total)
T2C0C 016:074 JLINK_ReadReg(XPSR)  returns 0x61000000 (0000ms, 0323ms total)
T2C0C 016:074 JLINK_ReadReg(MSP)  returns 0x20005838 (0000ms, 0323ms total)
T2C0C 016:074 JLINK_ReadReg(PSP)  returns 0x20001188 (0000ms, 0323ms total)
T2C0C 016:074 JLINK_ReadReg(CFBP)  returns 0x02000000 (0000ms, 0323ms total)
T2A6C 016:074 JLINK_ReadMem (0x00000000, 0x0004 Bytes, ...) -- CPU_ReadMem(4 bytes @ 0x00000004) -- Read from C cache (4 bytes @ 0x08000000) - Data: 68 58 00 20  returns 0x00 (0001ms, 0324ms total)
T2A6C 016:075 JLINK_ReadMemU32(0xE0001004, 0x0001 Items, ...) - Data: FF 9F 6E 01  returns 0x01 (0000ms, 0324ms total)
T2A6C 016:075 JLINK_ReadMem (0x20000000, 0x0004 Bytes, ...) -- CPU_ReadMem(64 bytes @ 0x20000000) -- Updating C cache (64 bytes @ 0x20000000) -- Read from C cache (4 bytes @ 0x20000000) - Data: 00 00 00 00  returns 0x00 (0001ms, 0325ms total)
T2A6C 016:077 JLINK_ReadMem (0x20000034, 0x0004 Bytes, ...) -- Read from C cache (4 bytes @ 0x20000034) - Data: 00 36 6E 01  returns 0x00 (0000ms, 0325ms total)
T2A6C 016:085 JLINK_ReadMem (0x000000C8, 0x003C Bytes, ...) -- Read from C cache (60 bytes @ 0x080000C8) - Data: 1B 02 00 08 1B 02 00 08 1B 02 00 08 1B 02 00 08 ...  returns 0x00 (0001ms, 0326ms total)
T2A6C 016:105 JLINK_ReadMem (0x08000A8E, 0x0002 Bytes, ...) -- Read from C cache (2 bytes @ 0x08000A8E) - Data: 00 20  returns 0x00 (0000ms, 0326ms total)
T2A6C 016:105 JLINK_ReadMem (0x08000A90, 0x003C Bytes, ...) -- Read from C cache (60 bytes @ 0x08000A90) - Data: 02 49 08 60 64 20 FF F7 03 FE F2 E7 00 00 00 20 ...  returns 0x00 (0000ms, 0326ms total)
T2C0C 016:865 JLINK_ReadMemU32(0xE0001004, 0x0001 Items, ...) - Data: FF 9F 6E 01  returns 0x01 (0000ms, 0326ms total)
T2C0C 016:865 JLINK_WriteU32(0xE0001004, 0x016E9FFF)  returns 0x00 (0000ms, 0326ms total)
T2C0C 016:865 JLINK_WriteU32(0xE0001000, 0x0041061F)  returns 0x00 (0000ms, 0326ms total)
T2C0C 016:865 JLINK_WriteU32(0xE0000E80, 0x0001000F)  returns 0x00 (0000ms, 0326ms total)
T2C0C 016:865 JLINK_SWO_Control(JLINKARM_SWO_CMD_GET_NUM_BYTES, ...)  returns 0x14 (0000ms, 0326ms total)
T2C0C 016:865 JLINK_SWO_Control(JLINKARM_SWO_CMD_FLUSH, ...)  returns 0x00 (0000ms, 0326ms total)
T2C0C 016:865 JLINK_Step() -- Read from C cache (2 bytes @ 0x08000A94) -- Simulated  returns 0x00 (0001ms, 0327ms total)
T2C0C 016:866 JLINK_ReadReg(R15 (PC))  returns 0x08000A96 (0000ms, 0327ms total)
T2C0C 016:866 JLINK_ReadReg(XPSR)  returns 0x21000000 (0000ms, 0327ms total)
T2C0C 016:866 JLINK_SetBPEx(Addr = 0x08000A9A, Type = 0xFFFFFFF2)  returns 0x00000006 (0000ms, 0327ms total)
T2C0C 016:866 JLINK_SetBPEx(Addr = 0x08000A88, Type = 0xFFFFFFF2)  returns 0x00000007 (0000ms, 0327ms total)
T2C0C 016:866 JLINK_ReadMemU32(0xE0001004, 0x0001 Items, ...) - Data: FF 9F 6E 01  returns 0x01 (0000ms, 0327ms total)
T2C0C 016:866 JLINK_WriteU32(0xE0001004, 0x016E9FFF)  returns 0x00 (0000ms, 0327ms total)
T2C0C 016:866 JLINK_WriteU32(0xE0001000, 0x0041061F)  returns 0x00 (0000ms, 0327ms total)
T2C0C 016:866 JLINK_WriteU32(0xE0000E80, 0x0001000F)  returns 0x00 (0000ms, 0327ms total)
T2C0C 016:866 JLINK_SWO_Control(JLINKARM_SWO_CMD_GET_NUM_BYTES, ...)  returns 0x00 (0000ms, 0327ms total)
T2C0C 016:866 JLINK_Go() -- CPU_WriteMem(4 bytes @ 0xE0002000) -- CPU_WriteMem(4 bytes @ 0xE0002000) -- CPU_WriteMem(4 bytes @ 0xE0001000) -- CPU_ReadMem(4 bytes @ 0xE0001000) -- CPU_WriteMem(4 bytes @ 0xE0000E80) -- CPU_WriteMem(4 bytes @ 0xE0002008) -- CPU_WriteMem(4 bytes @ 0xE0001004) (0007ms, 0334ms total)
T2C0C 016:874 JLINK_WriteU32(0xE0001000, 0x0001061F) -- CPU is running -- CPU_WriteMem(4 bytes @ 0xE0001000)  returns 0x00 (0000ms, 0334ms total)
T2C0C 016:974 JLINK_SWO_Read(..., Offset = 0x00, NumBytes = 0x400000) - Data: 1E 2D 4C 31 58 54 18 58 28 19 50 28 35 28 19 FF ...  NumBytesRead = 0xE0 (0000ms, 0334ms total)
T2C0C 016:976 JLINK_SWO_Control(JLINKARM_SWO_CMD_FLUSH, ...)  returns 0x00 (0000ms, 0334ms total)
T2C0C 016:976 JLINK_IsHalted()  returns FALSE (0000ms, 0334ms total)
T2C0C 017:076 JLINK_SWO_Read(..., Offset = 0x00, NumBytes = 0x400000) - Data: 14 D9 54 32 40 10 03 06 15 1E 15 06 14 0E 14 B3 ...  NumBytesRead = 0xCE (0000ms, 0334ms total)
T2C0C 017:077 JLINK_SWO_Control(JLINKARM_SWO_CMD_FLUSH, ...)  returns 0x00 (0000ms, 0334ms total)
T2C0C 017:077 JLINK_IsHalted()  returns FALSE (0000ms, 0334ms total)
T2C0C 017:177 JLINK_SWO_Read(..., Offset = 0x00, NumBytes = 0x400000) - Data: 15 B6 54 32 00 18 0B 06 15 16 15 0E 15 06 14 89 ...  NumBytesRead = 0xD2 (0000ms, 0334ms total)
T2C0C 017:179 JLINK_SWO_Control(JLINKARM_SWO_CMD_FLUSH, ...)  returns 0x00 (0000ms, 0334ms total)
T2C0C 017:179 JLINK_IsHalted()  returns FALSE (0000ms, 0334ms total)
T2C0C 017:279 JLINK_SWO_Read(..., Offset = 0x00, NumBytes = 0x400000) - Data: 14 88 14 32 00 58 03 06 15 1E 15 0E 15 0E 14 F6 ...  NumBytesRead = 0xCD (0000ms, 0334ms total)
T2C0C 017:280 JLINK_SWO_Control(JLINKARM_SWO_CMD_FLUSH, ...)  returns 0x00 (0000ms, 0334ms total)
T2C0C 017:280 JLINK_IsHalted()  returns FALSE (0000ms, 0334ms total)
T2C0C 017:380 JLINK_SWO_Read(..., Offset = 0x00, NumBytes = 0x400000) - Data: 14 B6 54 32 40 10 03 06 15 16 15 06 14 26 14 B3 ...  NumBytesRead = 0xDB (0000ms, 0334ms total)
T2C0C 017:382 JLINK_SWO_Control(JLINKARM_SWO_CMD_FLUSH, ...)  returns 0x00 (0000ms, 0334ms total)
T2C0C 017:382 JLINK_ReadMemU32(0xE0001004, 0x0001 Items, ...) -- CPU is running -- CPU_ReadMem(4 bytes @ 0xE0001004) - Data: 4E 7A 86 02  returns 0x01 (0000ms, 0334ms total)
T2A6C 017:386 JLINK_ReadMem (0x20000000, 0x0004 Bytes, ...) -- CPU is running -- CPU_ReadMem(4 bytes @ 0x20000000) - Data: 00 00 00 00  returns 0x00 (0001ms, 0335ms total)
T2A6C 017:388 JLINK_ReadMem (0x20000034, 0x0004 Bytes, ...) -- CPU is running -- CPU_ReadMem(4 bytes @ 0x20000034) - Data: 00 36 6E 01  returns 0x00 (0001ms, 0336ms total)
T2C0C 017:393 JLINK_IsHalted()  returns FALSE (0000ms, 0336ms total)
T2C0C 017:493 JLINK_SWO_Read(..., Offset = 0x00, NumBytes = 0x400000) - Data: 14 89 54 33 00 18 0B 06 14 16 15 0E 15 06 14 88 ...  NumBytesRead = 0xE8 (0000ms, 0336ms total)
T2C0C 017:494 JLINK_SWO_Control(JLINKARM_SWO_CMD_FLUSH, ...)  returns 0x00 (0000ms, 0336ms total)
T2C0C 017:494 JLINK_IsHalted()  returns FALSE (0000ms, 0336ms total)
T2C0C 017:594 JLINK_SWO_Read(..., Offset = 0x00, NumBytes = 0x400000) - Data: 14 B3 54 32 00 10 0A 06 15 16 15 06 15 06 16 F6 ...  NumBytesRead = 0x58 (0000ms, 0336ms total)
T2C0C 017:595 JLINK_SWO_Control(JLINKARM_SWO_CMD_FLUSH, ...)  returns 0x00 (0000ms, 0336ms total)
T2C0C 017:595 JLINK_IsHalted()  returns TRUE (0003ms, 0339ms total)
T2C0C 017:598 JLINK_Halt()  returns 0x00 (0000ms, 0336ms total)
T2C0C 017:598 JLINK_IsHalted()  returns TRUE (0000ms, 0336ms total)
T2C0C 017:598 JLINK_IsHalted()  returns TRUE (0000ms, 0336ms total)
T2C0C 017:598 JLINK_IsHalted()  returns TRUE (0000ms, 0336ms total)
T2C0C 017:598 JLINK_ReadReg(R15 (PC))  returns 0x08000A9A (0000ms, 0336ms total)
T2C0C 017:598 JLINK_ReadReg(XPSR)  returns 0x21000000 (0000ms, 0336ms total)
T2C0C 017:598 JLINK_SWO_Read(..., Offset = 0x00, NumBytes = 0x400000) - Data:  NumBytesRead = 0x00 (0000ms, 0336ms total)
T2C0C 017:601 JLINK_SWO_Control(JLINKARM_SWO_CMD_FLUSH, ...)  returns 0x00 (0000ms, 0336ms total)
T2C0C 017:601 JLINK_ClrBPEx(BPHandle = 0x00000006)  returns 0x00 (0000ms, 0336ms total)
T2C0C 017:601 JLINK_ClrBPEx(BPHandle = 0x00000007)  returns 0x00 (0000ms, 0336ms total)
T2C0C 017:601 JLINK_ReadMemU32(0xE000ED30, 0x0001 Items, ...) -- CPU_ReadMem(4 bytes @ 0xE000ED30) - Data: 03 00 00 00  returns 0x01 (0001ms, 0337ms total)
T2C0C 017:602 JLINK_ReadMemU32(0xE0001028, 0x0001 Items, ...) -- CPU_ReadMem(4 bytes @ 0xE0001028) - Data: 00 00 00 00  returns 0x01 (0001ms, 0338ms total)
T2C0C 017:603 JLINK_ReadMemU32(0xE0001038, 0x0001 Items, ...) -- CPU_ReadMem(4 bytes @ 0xE0001038) - Data: 00 02 00 00  returns 0x01 (0000ms, 0338ms total)
T2C0C 017:603 JLINK_ReadMemU32(0xE0001048, 0x0001 Items, ...) -- CPU_ReadMem(4 bytes @ 0xE0001048) - Data: 00 00 00 00  returns 0x01 (0001ms, 0339ms total)
T2C0C 017:605 JLINK_ReadMemU32(0xE0001004, 0x0001 Items, ...) -- CPU_ReadMem(4 bytes @ 0xE0001004) - Data: FF D5 DC 02  returns 0x01 (0000ms, 0339ms total)
T2C0C 017:605 JLINK_WriteU32(0xE0001004, 0x02867BFF) -- CPU_WriteMem(4 bytes @ 0xE0001004)  returns 0x00 (0001ms, 0340ms total)
T2C0C 017:606 JLINK_WriteU32(0xE0001000, 0x0041061F)  returns 0x00 (0000ms, 0340ms total)
T2C0C 017:606 JLINK_WriteU32(0xE0000E80, 0x0001000F)  returns 0x00 (0000ms, 0340ms total)
T2C0C 017:606 JLINK_SWO_Control(JLINKARM_SWO_CMD_GET_NUM_BYTES, ...)  returns 0x00 (0000ms, 0340ms total)
T2C0C 017:606 JLINK_Step() -- CPU_ReadMem(64 bytes @ 0x08000A80) -- Updating C cache (64 bytes @ 0x08000A80) -- Read from C cache (2 bytes @ 0x08000A9A) -- Simulated  returns 0x00 (0001ms, 0341ms total)
T2C0C 017:607 JLINK_ReadReg(R15 (PC))  returns 0x08000A82 (0000ms, 0341ms total)
T2C0C 017:607 JLINK_ReadReg(XPSR)  returns 0x21000000 (0000ms, 0341ms total)
T2C0C 017:607 JLINK_ReadReg(R0)  returns 0x00000000 (0000ms, 0341ms total)
T2C0C 017:607 JLINK_ReadReg(R1)  returns 0xE000ED04 (0000ms, 0341ms total)
T2C0C 017:607 JLINK_ReadReg(R2)  returns 0x00000003 (0000ms, 0341ms total)
T2C0C 017:607 JLINK_ReadReg(R3)  returns 0x00000001 (0000ms, 0341ms total)
T2C0C 017:607 JLINK_ReadReg(R4)  returns 0x00000004 (0000ms, 0341ms total)
T2C0C 017:607 JLINK_ReadReg(R5)  returns 0x00000005 (0000ms, 0341ms total)
T2C0C 017:607 JLINK_ReadReg(R6)  returns 0x00000006 (0000ms, 0341ms total)
T2C0C 017:607 JLINK_ReadReg(R7)  returns 0x00000007 (0000ms, 0341ms total)
T2C0C 017:607 JLINK_ReadReg(R8)  returns 0x00000008 (0000ms, 0341ms total)
T2C0C 017:607 JLINK_ReadReg(R9)  returns 0x00000009 (0001ms, 0342ms total)
T2C0C 017:608 JLINK_ReadReg(R10)  returns 0x00000010 (0000ms, 0342ms total)
T2C0C 017:608 JLINK_ReadReg(R11)  returns 0x00000011 (0000ms, 0342ms total)
T2C0C 017:608 JLINK_ReadReg(R12)  returns 0x00000012 (0000ms, 0342ms total)
T2C0C 017:608 JLINK_ReadReg(R13 (SP))  returns 0x20001188 (0000ms, 0342ms total)
T2C0C 017:608 JLINK_ReadReg(R14)  returns 0x080006C7 (0000ms, 0342ms total)
T2C0C 017:608 JLINK_ReadReg(R15 (PC))  returns 0x08000A82 (0000ms, 0342ms total)
T2C0C 017:608 JLINK_ReadReg(XPSR)  returns 0x21000000 (0000ms, 0342ms total)
T2C0C 017:608 JLINK_ReadReg(MSP)  returns 0x20005838 (0000ms, 0342ms total)
T2C0C 017:608 JLINK_ReadReg(PSP)  returns 0x20001188 (0000ms, 0342ms total)
T2C0C 017:608 JLINK_ReadReg(CFBP)  returns 0x02000000 (0000ms, 0342ms total)
T2A6C 017:608 JLINK_ReadMem (0x00000000, 0x0004 Bytes, ...) -- CPU_ReadMem(4 bytes @ 0x00000004) -- CPU_ReadMem(64 bytes @ 0x08000000) -- Updating C cache (64 bytes @ 0x08000000) -- Read from C cache (4 bytes @ 0x08000000) - Data: 68 58 00 20  returns 0x00 (0002ms, 0344ms total)
T2A6C 017:610 JLINK_ReadMemU32(0xE0001004, 0x0001 Items, ...) - Data: FF 7B 86 02  returns 0x01 (0001ms, 0345ms total)
